!Agilent Technologies,E5061B,MY49100127,A.01.10
!Date: Thu Apr 01 12:34:10 2010
!Data & Calibration Information:
!Freq	S11:SOLT2(ON)	S21:SOLT2(ON)	S12:SOLT2(ON)	S22:SOLT2(ON)
# Hz S dB R 50
5.000	-6.906903e-001	-1.110346e+000	-9.367885e+001	1.577038e+001	-6.793011e+001	1.918331e+001	-1.403448e+001	1.798873e+002
5.287	-6.969318e-001	-1.097881e+000	-9.371505e+001	1.384151e+001	-6.958407e+001	1.368878e+001	-1.403619e+001	1.798864e+002
5.575	-7.034607e-001	-1.079472e+000	-9.407207e+001	1.219747e+001	-6.324405e+001	1.070981e+001	-1.403608e+001	1.798848e+002
5.862	-7.109466e-001	-1.070044e+000	-9.403030e+001	1.000663e+001	-7.006394e+001	-2.949349e+001	-1.403595e+001	1.798843e+002
6.150	-7.176259e-001	-1.053208e+000	-9.332835e+001	1.063662e+001	-7.180462e+001	-1.826383e+000	-1.403610e+001	1.798828e+002
6.437	-7.261314e-001	-1.026421e+000	-9.394819e+001	9.539941e+000	-6.681107e+001	-1.633613e+001	-1.403576e+001	1.798816e+002
6.771	-7.422467e-001	-9.662805e-001	-9.384118e+001	1.051618e+001	-6.464538e+001	-7.135754e+000	-1.403441e+001	1.798841e+002
7.171	-7.447466e-001	-9.526144e-001	-9.296936e+001	9.883802e+000	-6.600824e+001	1.073765e+001	-1.403652e+001	1.798812e+002
7.570	-7.407370e-001	-9.875693e-001	-9.337761e+001	8.471444e+000	-6.794143e+001	3.547791e+001	-1.403564e+001	1.798804e+002
7.970	-7.439180e-001	-9.738446e-001	-9.349339e+001	1.037900e+001	-6.035896e+001	7.115263e+000	-1.402781e+001	1.798803e+002
8.370	-7.465824e-001	-9.475608e-001	-9.334630e+001	1.018275e+001	-6.641833e+001	5.559348e+001	-1.402739e+001	1.798795e+002
8.769	-7.505527e-001	-9.410811e-001	-9.320612e+001	8.376882e+000	-6.585845e+001	2.500742e+001	-1.402862e+001	1.798793e+002
9.169	-7.584237e-001	-9.245789e-001	-9.320587e+001	9.817550e+000	-6.885995e+001	-1.543974e+001	-1.402889e+001	1.798787e+002
9.644	-7.595872e-001	-8.813523e-001	-9.296354e+001	8.766297e+000	-6.352004e+001	-2.665096e+000	-1.402996e+001	1.798782e+002
10.198	-7.678840e-001	-8.700269e-001	-9.299982e+001	1.150606e+001	-6.581434e+001	-1.100069e+001	-1.403004e+001	1.798791e+002
10.753	-7.727788e-001	-8.404932e-001	-9.323462e+001	9.879655e+000	-6.488546e+001	-7.788540e+000	-1.403019e+001	1.798791e+002
11.307	-7.763327e-001	-8.263052e-001	-9.287100e+001	7.455796e+000	-6.340677e+001	-5.849779e+000	-1.402959e+001	1.798782e+002
11.862	-7.793809e-001	-8.146993e-001	-9.301139e+001	6.158207e+000	-6.626360e+001	-5.119040e+000	-1.402802e+001	1.798787e+002
12.416	-7.845210e-001	-7.872842e-001	-9.281161e+001	6.586582e+000	-6.538106e+001	-6.081123e+000	-1.402924e+001	1.798782e+002
13.060	-7.883766e-001	-7.737000e-001	-9.281654e+001	8.361098e+000	-6.607230e+001	1.291702e+001	-1.402932e+001	1.798776e+002
13.831	-7.917729e-001	-7.460680e-001	-9.291937e+001	6.668578e+000	-6.768145e+001	1.850049e+000	-1.402985e+001	1.798782e+002
14.601	-7.941906e-001	-7.168250e-001	-9.305210e+001	6.600645e+000	-6.597577e+001	-2.549508e+001	-1.403057e+001	1.798782e+002
15.372	-7.985668e-001	-6.939103e-001	-9.262798e+001	7.670553e+000	-6.558058e+001	-2.655611e+001	-1.402983e+001	1.798778e+002
16.143	-7.997499e-001	-6.754955e-001	-9.272168e+001	5.730718e+000	-6.661830e+001	-2.600677e+001	-1.402885e+001	1.798781e+002
16.914	-7.998345e-001	-6.583810e-001	-9.249278e+001	6.935295e+000	-6.445873e+001	-2.265363e+001	-1.402980e+001	1.798780e+002
17.685	-8.027102e-001	-6.454804e-001	-9.289120e+001	5.012343e+000	-6.521100e+001	-2.029520e+001	-1.402901e+001	1.798786e+002
18.602	-8.040005e-001	-6.328450e-001	-9.270725e+001	4.874196e+000	-6.462708e+001	-2.716811e+001	-1.402940e+001	1.798778e+002
19.671	-8.071591e-001	-6.194078e-001	-9.305032e+001	2.675109e+000	-6.801212e+001	-3.762912e+001	-1.402975e+001	1.798782e+002
20.740	-8.077265e-001	-6.048587e-001	-9.259661e+001	6.379729e+000	-6.573679e+001	-4.312530e+001	-1.403060e+001	1.798788e+002
21.810	-8.097625e-001	-5.876239e-001	-9.257833e+001	6.621024e+000	-6.379377e+001	-2.991649e+001	-1.403061e+001	1.798775e+002
22.879	-8.108453e-001	-5.853439e-001	-9.268336e+001	5.668984e+000	-6.830483e+001	-4.695174e+001	-1.403062e+001	1.798787e+002
23.948	-8.133422e-001	-5.518112e-001	-9.269604e+001	4.122829e+000	-6.541518e+001	-4.912751e+001	-1.403060e+001	1.798783e+002
25.190	-8.155920e-001	-5.539354e-001	-9.242002e+001	2.303609e+000	-6.593800e+001	-4.346907e+001	-1.403066e+001	1.798787e+002
26.677	-8.135471e-001	-5.534181e-001	-9.254232e+001	4.849766e+000	-6.820686e+001	-5.691514e+001	-1.403045e+001	1.798792e+002
28.163	-8.172200e-001	-5.423993e-001	-9.270438e+001	3.600876e+000	-6.866460e+001	-5.673622e+001	-1.403066e+001	1.798785e+002
29.650	-8.203709e-001	-5.250390e-001	-9.271029e+001	4.382349e+000	-6.882745e+001	-3.823756e+001	-1.403089e+001	1.798797e+002
31.137	-8.188554e-001	-5.258862e-001	-9.246473e+001	3.431224e+000	-6.912811e+001	-7.019818e+001	-1.403110e+001	1.798785e+002
32.624	-8.217611e-001	-5.137006e-001	-9.298096e+001	6.586608e+000	-6.664074e+001	-3.529889e+001	-1.403061e+001	1.798784e+002
34.111	-8.250088e-001	-5.229330e-001	-9.266698e+001	3.287262e+000	-6.695225e+001	-4.877238e+001	-1.402989e+001	1.798791e+002
35.879	-8.204324e-001	-5.140241e-001	-9.261011e+001	6.165005e+000	-6.746510e+001	-8.028081e+001	-1.403064e+001	1.798795e+002
37.942	-8.244682e-001	-5.252483e-001	-9.276452e+001	5.065871e+000	-6.830646e+001	-8.125118e+001	-1.403048e+001	1.798793e+002
40.004	-8.277555e-001	-4.964014e-001	-9.252372e+001	4.866518e+000	-7.014714e+001	-8.187522e+001	-1.403054e+001	1.798790e+002
42.067	-8.278965e-001	-5.096101e-001	-9.275127e+001	8.137394e+000	-6.654606e+001	-8.814610e+001	-1.403091e+001	1.798790e+002
44.129	-8.308825e-001	-5.079946e-001	-9.309405e+001	-5.796284e-001	-6.719453e+001	-4.722850e+001	-1.403144e+001	1.798792e+002
46.192	-8.320363e-001	-5.105079e-001	-9.237518e+001	1.314158e+001	-6.965135e+001	-1.188503e+002	-1.403205e+001	1.798806e+002
48.586	-8.356045e-001	-5.089888e-001	-9.105673e+001	1.127098e+001	-7.405040e+001	1.493375e+002	-1.403174e+001	1.798815e+002
51.454	-8.380683e-001	-4.959536e-001	-9.119092e+001	8.701304e+000	-7.752606e+001	-6.458441e+001	-1.403164e+001	1.798817e+002
54.322	-8.394340e-001	-5.010803e-001	-9.289067e+001	-3.670843e+000	-6.592099e+001	-7.580736e+001	-1.403134e+001	1.798790e+002
57.190	-8.414953e-001	-5.076241e-001	-9.227364e+001	1.906900e+000	-6.840049e+001	-8.806336e+001	-1.403133e+001	1.798798e+002
60.058	-8.431206e-001	-5.216434e-001	-9.236000e+001	3.074210e+000	-7.329057e+001	-5.133366e+001	-1.403186e+001	1.798811e+002
62.926	-8.450182e-001	-5.143702e-001	-9.283622e+001	3.711189e+000	-7.140272e+001	-9.362770e+001	-1.403185e+001	1.798806e+002
65.794	-8.461869e-001	-5.155443e-001	-9.231738e+001	2.529161e+000	-7.043772e+001	-1.160631e+002	-1.403190e+001	1.798809e+002
69.204	-8.497400e-001	-5.099447e-001	-9.295711e+001	2.478769e+000	-7.036529e+001	-7.569637e+001	-1.403220e+001	1.798802e+002
73.182	-8.506302e-001	-5.174276e-001	-9.241387e+001	7.572605e+000	-6.915287e+001	-1.224577e+002	-1.403192e+001	1.798812e+002
77.161	-8.518444e-001	-5.203334e-001	-9.249465e+001	3.075273e+000	-6.520057e+001	-8.830214e+001	-1.403197e+001	1.798809e+002
81.139	-8.549827e-001	-5.112418e-001	-9.215522e+001	1.502804e+000	-7.731509e+001	-1.479484e+002	-1.403216e+001	1.798818e+002
85.117	-8.557079e-001	-5.205302e-001	-9.218461e+001	2.242432e+000	-7.200918e+001	-4.216894e+001	-1.403256e+001	1.798807e+002
89.096	-8.594721e-001	-5.202604e-001	-9.240171e+001	3.957683e+000	-7.215317e+001	-1.250461e+002	-1.403200e+001	1.798809e+002
93.713	-8.595394e-001	-5.364077e-001	-9.220429e+001	9.591027e-001	-7.100011e+001	9.839468e+001	-1.403207e+001	1.798823e+002
99.245	-8.631842e-001	-5.133764e-001	-9.231686e+001	5.418747e+000	-6.648461e+001	-1.371868e+002	-1.403197e+001	1.798813e+002
104.777	-8.706511e-001	-5.227978e-001	-9.246029e+001	6.092583e+000	-6.938837e+001	-1.015463e+002	-1.403139e+001	1.798860e+002
110.309	-8.688516e-001	-5.358443e-001	-9.176350e+001	1.231281e+000	-8.322042e+001	1.120928e+002	-1.403218e+001	1.798826e+002
115.840	-8.707028e-001	-5.337403e-001	-9.254350e+001	3.271253e+000	-7.587346e+001	-1.681758e+002	-1.403269e+001	1.798829e+002
121.372	-8.735707e-001	-5.402601e-001	-9.176864e+001	2.992140e+000	-7.739349e+001	-1.435022e+002	-1.403336e+001	1.798825e+002
126.904	-8.759019e-001	-5.452740e-001	-9.220980e+001	3.860235e+000	-7.472742e+001	-1.743185e+002	-1.403306e+001	1.798826e+002
133.481	-8.823917e-001	-5.385305e-001	-9.260493e+001	4.600271e+000	-7.391993e+001	-1.654976e+002	-1.403287e+001	1.798825e+002
141.155	-8.826127e-001	-5.534943e-001	-9.151534e+001	1.855184e+000	-7.715047e+001	-1.797737e+002	-1.403305e+001	1.798811e+002
148.828	-8.855136e-001	-5.484957e-001	-9.197067e+001	8.049397e+000	-7.866200e+001	-1.093723e+002	-1.403282e+001	1.798804e+002
156.502	-8.879586e-001	-5.415246e-001	-9.117742e+001	4.203145e+000	-8.724883e+001	-1.776010e+002	-1.403239e+001	1.798790e+002
164.175	-8.923046e-001	-5.592024e-001	-9.231614e+001	1.571922e+000	-8.271443e+001	-6.542695e+001	-1.403254e+001	1.798835e+002
171.849	-8.923556e-001	-5.517907e-001	-9.197282e+001	-1.765049e-001	-7.348710e+001	-1.374415e+002	-1.403223e+001	1.798825e+002
180.756	-8.953415e-001	-5.570970e-001	-9.192195e+001	9.181809e-002	-7.456579e+001	1.577479e+002	-1.403270e+001	1.798834e+002
191.425	-8.996762e-001	-5.601956e-001	-9.261980e+001	9.416886e-003	-7.156626e+001	-1.654039e+002	-1.403250e+001	1.798814e+002
202.095	-9.020469e-001	-5.669004e-001	-9.234743e+001	-3.247057e-001	-7.229671e+001	-1.738828e+002	-1.403272e+001	1.798807e+002
212.764	-9.035300e-001	-5.592543e-001	-9.220634e+001	3.565568e+000	-7.831343e+001	-1.592118e+002	-1.403249e+001	1.798803e+002
223.434	-9.079981e-001	-5.570883e-001	-9.146816e+001	3.652754e+000	-7.815351e+001	-7.280452e+001	-1.403283e+001	1.798836e+002
234.104	-9.093308e-001	-5.655789e-001	-9.139845e+001	-5.470753e-001	-8.344042e+001	-3.429066e+001	-1.403257e+001	1.798821e+002
244.773	-9.139048e-001	-5.638624e-001	-9.263246e+001	7.336425e+000	-7.554436e+001	9.654286e+001	-1.403278e+001	1.798817e+002
257.460	-9.136940e-001	-5.549701e-001	-9.159562e+001	1.010348e+001	-7.663399e+001	1.668115e+002	-1.403283e+001	1.798815e+002
272.261	-9.173169e-001	-5.714420e-001	-9.126520e+001	-1.981849e-001	-8.502056e+001	1.558054e+002	-1.403294e+001	1.798807e+002
287.062	-9.217650e-001	-5.793185e-001	-9.149032e+001	1.248011e+000	-7.777877e+001	1.508079e+002	-1.403256e+001	1.798808e+002
301.862	-9.243701e-001	-5.648661e-001	-9.225834e+001	7.375569e+000	-7.632916e+001	1.330328e+002	-1.403236e+001	1.798826e+002
316.663	-9.280999e-001	-5.697621e-001	-9.125969e+001	1.865937e+000	-8.480812e+001	6.074110e+001	-1.403305e+001	1.798805e+002
331.464	-9.290357e-001	-5.771660e-001	-9.194155e+001	3.373156e+000	-9.233269e+001	-1.323167e+002	-1.403235e+001	1.798815e+002
348.644	-9.318148e-001	-5.752855e-001	-9.143585e+001	-2.295169e+000	-9.235677e+001	-1.215074e+002	-1.403279e+001	1.798824e+002
369.223	-9.345372e-001	-5.720542e-001	-9.253217e+001	-2.544106e+000	-9.463030e+001	3.515979e+001	-1.403292e+001	1.798800e+002
389.803	-9.399826e-001	-5.785148e-001	-9.148842e+001	1.078078e+000	-7.311050e+001	1.083699e+002	-1.403235e+001	1.798812e+002
410.383	-9.415883e-001	-5.726555e-001	-9.169697e+001	4.362370e-002	-8.221787e+001	-1.211468e+002	-1.403224e+001	1.798809e+002
430.962	-9.454793e-001	-5.817881e-001	-9.131686e+001	1.316596e+000	-8.611967e+001	6.018255e+001	-1.403266e+001	1.798782e+002
451.542	-9.485043e-001	-5.771709e-001	-9.193838e+001	6.931614e-001	-8.967027e+001	7.982601e+001	-1.403276e+001	1.798806e+002
472.122	-9.510615e-001	-5.745302e-001	-9.176416e+001	1.861084e+000	-8.064351e+001	-1.017219e+002	-1.403277e+001	1.798779e+002
496.592	-9.531458e-001	-5.732653e-001	-9.096171e+001	-7.586850e-001	-7.816875e+001	-1.267842e+002	-1.403228e+001	1.798815e+002
525.140	-9.552111e-001	-5.846798e-001	-9.147089e+001	5.768926e-001	-8.504988e+001	-1.567406e+002	-1.403219e+001	1.798788e+002
553.688	-9.592644e-001	-5.744749e-001	-9.112981e+001	2.851875e+000	-8.349889e+001	7.875564e+001	-1.403208e+001	1.798795e+002
582.236	-9.626267e-001	-5.825344e-001	-9.166186e+001	2.446591e+000	-7.725809e+001	-2.177466e+001	-1.403263e+001	1.798785e+002
610.784	-9.649781e-001	-5.778895e-001	-9.115307e+001	1.684702e+000	-7.984616e+001	-1.598106e+002	-1.403241e+001	1.798746e+002
639.332	-9.678798e-001	-5.841945e-001	-9.129468e+001	-4.399059e+000	-8.084758e+001	9.273416e+001	-1.403274e+001	1.798783e+002
672.468	-9.689160e-001	-5.844585e-001	-9.253839e+001	-3.248157e+000	-8.259801e+001	-1.469580e+002	-1.403343e+001	1.798802e+002
711.127	-9.736397e-001	-5.822117e-001	-9.109023e+001	-1.942950e+000	-7.978087e+001	-4.930503e+001	-1.403184e+001	1.798743e+002
749.786	-9.768368e-001	-5.769412e-001	-9.166029e+001	-2.569200e+000	-9.225932e+001	-1.342942e+002	-1.403311e+001	1.798763e+002
788.445	-9.810118e-001	-5.720884e-001	-9.090848e+001	3.526454e+000	-8.068964e+001	1.646963e+001	-1.403235e+001	1.798757e+002
827.103	-9.824605e-001	-5.737091e-001	-9.186545e+001	-2.262861e+000	-8.055378e+001	2.689560e+001	-1.403223e+001	1.798761e+002
865.762	-9.858086e-001	-5.733927e-001	-9.152020e+001	-3.962602e+000	-7.670497e+001	7.041261e+001	-1.403290e+001	1.798745e+002
910.634	-9.897212e-001	-5.748421e-001	-9.134416e+001	-4.501521e+000	-8.721130e+001	9.909813e+001	-1.403259e+001	1.798778e+002
964.387	-9.901546e-001	-5.751867e-001	-9.143944e+001	-2.624693e+000	-7.905144e+001	1.349001e+002	-1.403301e+001	1.798708e+002
1018.140	-9.945759e-001	-5.661517e-001	-9.066634e+001	-1.130761e+001	-7.691177e+001	1.288331e+002	-1.403255e+001	1.798740e+002
1071.893	-9.978100e-001	-5.683567e-001	-9.105149e+001	-2.141037e+000	-8.096986e+001	2.730731e+001	-1.403229e+001	1.798709e+002
1125.645	-1.000394e+000	-5.678957e-001	-9.185645e+001	-7.784724e+000	-8.136018e+001	-7.481340e+001	-1.403305e+001	1.798723e+002
1179.398	-1.001993e+000	-5.639809e-001	-9.128846e+001	-4.614623e+000	-9.188447e+001	-3.461991e+001	-1.403338e+001	1.798697e+002
1233.151	-1.005087e+000	-5.677381e-001	-9.193443e+001	-1.021543e+001	-7.793866e+001	-6.476154e+001	-1.403228e+001	1.798710e+002
1297.065	-1.007241e+000	-5.528586e-001	-9.061351e+001	-5.057134e+000	-8.185820e+001	1.256954e+002	-1.403320e+001	1.798710e+002
1371.630	-1.011988e+000	-5.491969e-001	-9.069467e+001	-1.042449e+001	-8.704975e+001	2.533336e+001	-1.403333e+001	1.798683e+002
1446.196	-1.014071e+000	-5.525642e-001	-9.220006e+001	-1.239704e+001	-7.641453e+001	-1.208866e+002	-1.403261e+001	1.798690e+002
1520.761	-1.016638e+000	-5.521667e-001	-9.047631e+001	-4.386748e+000	-8.432073e+001	1.329267e+002	-1.403326e+001	1.798665e+002
1595.327	-1.019180e+000	-5.499944e-001	-9.095373e+001	-9.291226e+000	-8.196236e+001	-9.616586e+001	-1.403387e+001	1.798687e+002
1669.892	-1.020376e+000	-5.518743e-001	-9.175603e+001	-9.210491e+000	-8.046190e+001	4.538081e+001	-1.403371e+001	1.798636e+002
1756.442	-1.024633e+000	-5.470619e-001	-9.181783e+001	-6.282892e+000	-8.091863e+001	-3.449947e+001	-1.403320e+001	1.798694e+002
1860.121	-1.026812e+000	-5.550528e-001	-9.119485e+001	-1.025440e+001	-7.680131e+001	-1.275251e+001	-1.403342e+001	1.798672e+002
1963.800	-1.031148e+000	-5.441270e-001	-9.123724e+001	-8.021191e+000	-8.694795e+001	1.517748e+002	-1.403414e+001	1.798623e+002
2067.479	-1.033527e+000	-5.443648e-001	-9.085916e+001	-1.540903e+001	-7.892471e+001	-3.023573e+001	-1.403417e+001	1.798562e+002
2171.158	-1.036208e+000	-5.418643e-001	-9.178243e+001	-2.057677e+001	-7.815984e+001	2.434438e+001	-1.403376e+001	1.798530e+002
2274.837	-1.037348e+000	-5.379218e-001	-9.161792e+001	-1.753658e+001	-8.637334e+001	1.160700e+002	-1.403429e+001	1.798614e+002
2378.516	-1.040603e+000	-5.355158e-001	-9.116597e+001	-7.377345e+000	-7.796007e+001	7.630631e+001	-1.403448e+001	1.798558e+002
2501.794	-1.041867e+000	-5.330711e-001	-9.280701e+001	-1.143859e+001	-7.828328e+001	8.893453e+001	-1.403367e+001	1.798602e+002
2645.617	-1.045689e+000	-5.258118e-001	-9.206495e+001	-1.524720e+001	-8.933044e+001	1.738371e+002	-1.403388e+001	1.798568e+002
2789.440	-1.047679e+000	-5.346882e-001	-9.095732e+001	-1.325546e+001	-8.671066e+001	1.379530e+002	-1.403368e+001	1.798550e+002
2933.263	-1.049706e+000	-5.276428e-001	-9.153689e+001	-1.668715e+001	-7.767469e+001	7.506778e+001	-1.403421e+001	1.798519e+002
3077.086	-1.052918e+000	-5.243845e-001	-9.186827e+001	-1.759201e+001	-7.462424e+001	-6.352706e+001	-1.403528e+001	1.798560e+002
3220.909	-1.056342e+000	-5.292279e-001	-9.367426e+001	-1.517460e+001	-7.724677e+001	1.187404e+000	-1.403496e+001	1.798472e+002
3387.847	-1.057835e+000	-5.225078e-001	-9.129756e+001	-1.796350e+001	-8.319611e+001	5.060798e+000	-1.403611e+001	1.798582e+002
3587.824	-1.060957e+000	-5.223673e-001	-9.136208e+001	-2.037042e+001	-7.990205e+001	-1.323505e+001	-1.403702e+001	1.798498e+002
3787.802	-1.062316e+000	-5.155270e-001	-9.157026e+001	-3.024323e+001	-7.841182e+001	1.111428e+002	-1.403609e+001	1.798532e+002
3987.779	-1.064707e+000	-5.158735e-001	-9.077849e+001	-3.191174e+001	-8.564236e+001	6.995271e+001	-1.403593e+001	1.798421e+002
4187.756	-1.069041e+000	-5.092671e-001	-9.341382e+001	-3.194849e+001	-7.903064e+001	7.980597e+001	-1.403498e+001	1.798477e+002
4387.734	-1.070666e+000	-5.088395e-001	-9.312542e+001	-2.581240e+001	-7.780614e+001	4.076345e+001	-1.403634e+001	1.798501e+002
4587.711	-1.071752e+000	-5.088314e-001	-9.396363e+001	-3.362276e+001	-7.945549e+001	-8.068856e+001	-1.403603e+001	1.798491e+002
4825.490	-1.074474e+000	-4.999930e-001	-9.225386e+001	-3.708809e+001	-7.941027e+001	-8.015974e+001	-1.403699e+001	1.798483e+002
5102.898	-1.075979e+000	-5.110337e-001	-9.318007e+001	-3.098757e+001	-8.071206e+001	8.768028e+001	-1.403883e+001	1.798404e+002
5380.305	-1.078787e+000	-5.020523e-001	-9.198288e+001	-4.211507e+001	-8.532742e+001	-7.953330e+001	-1.403778e+001	1.798516e+002
5657.713	-1.081691e+000	-4.996628e-001	-9.313551e+001	-3.229426e+001	-8.357346e+001	-1.166310e+002	-1.403868e+001	1.798523e+002
5935.120	-1.083222e+000	-5.062289e-001	-9.278506e+001	-2.607860e+001	-8.632504e+001	-1.493939e+002	-1.403802e+001	1.798457e+002
6212.527	-1.085304e+000	-5.005418e-001	-9.375880e+001	-5.207030e+001	-8.676906e+001	-9.203998e+001	-1.403914e+001	1.798396e+002
6534.520	-1.087115e+000	-5.003967e-001	-9.130323e+001	-4.696563e+001	-7.912399e+001	7.202846e+001	-1.403802e+001	1.798593e+002
6920.239	-1.090825e+000	-4.985220e-001	-9.485351e+001	-4.437386e+001	-8.742972e+001	-1.265935e+002	-1.403792e+001	1.798458e+002
7305.958	-1.094363e+000	-4.970417e-001	-9.795454e+001	-5.498696e+001	-8.531468e+001	1.703247e+002	-1.403947e+001	1.798423e+002
7691.676	-1.095218e+000	-4.900634e-001	-9.458347e+001	-3.346033e+001	-8.519360e+001	-5.049410e+001	-1.403982e+001	1.798530e+002
8077.395	-1.097502e+000	-4.973310e-001	-9.264737e+001	-5.533363e+001	-8.231483e+001	-1.329573e+002	-1.404023e+001	1.798473e+002
8463.114	-1.100102e+000	-4.979592e-001	-9.455399e+001	-7.034310e+001	-8.129153e+001	1.750891e+002	-1.403893e+001	1.798439e+002
8848.832	-1.102324e+000	-4.914410e-001	-9.473047e+001	-4.002845e+001	-7.583316e+001	-3.507973e+001	-1.404017e+001	1.798509e+002
9307.464	-1.102549e+000	-4.988492e-001	-9.409451e+001	-5.654465e+001	-7.730504e+001	-8.010861e+001	-1.403862e+001	1.798408e+002
9842.530	-1.105317e+000	-4.943620e-001	-9.664114e+001	-5.994935e+001	-8.808939e+001	5.074478e+000	-1.404169e+001	1.798456e+002
10377.597	-1.108696e+000	-4.788304e-001	-9.539353e+001	-3.149778e+001	-8.732475e+001	-3.467303e+001	-1.404198e+001	1.798586e+002
10912.664	-1.110702e+000	-4.961877e-001	-9.692211e+001	-4.670684e+001	-8.593986e+001	3.748098e+001	-1.404213e+001	1.798546e+002
11447.731	-1.112909e+000	-4.924129e-001	-9.761582e+001	-5.637669e+001	-8.791622e+001	-1.232083e+001	-1.404250e+001	1.798529e+002
11982.798	-1.114715e+000	-4.884621e-001	-9.719703e+001	-5.141363e+001	-8.004767e+001	-1.710509e+002	-1.404413e+001	1.798600e+002
12603.861	-1.116012e+000	-5.001944e-001	-9.492620e+001	-5.510919e+001	-9.937471e+001	7.321552e+001	-1.404189e+001	1.798567e+002
